! tinySA-App
! Date: 2025-11-24 19:49:14
! Start: 2,19GHz Stop: 5,96GHz Points: 1000
! S-Parameter data: F S11 S21
# Hz S RI R 50
!     Frequency           S11 Real           S11 Imag           S21 Real           S21 Imag
 2190000000,000    1,607867125e-05    0,000000000e+00    0,000000000e+00    0,000000000e+00
 2193773774,000    1,910952960e-05    0,000000000e+00    0,000000000e+00    0,000000000e+00
 2197547547,000    1,703137968e-05    0,000000000e+00    0,000000000e+00    0,000000000e+00
 2201321321,000    2,024184505e-05    0,000000000e+00    0,000000000e+00    0,000000000e+00
 2205095094,000    1,138282551e-05    0,000000000e+00    0,000000000e+00    0,000000000e+00
 2208868868,000    1,352850813e-05    0,000000000e+00    0,000000000e+00    0,000000000e+00
 2212642642,000    1,517924193e-05    0,000000000e+00    0,000000000e+00    0,000000000e+00
 2216416415,000    2,405746636e-05    0,000000000e+00    0,000000000e+00    0,000000000e+00
 2220190189,000    5,704924661e-06    0,000000000e+00    0,000000000e+00    0,000000000e+00
 2223963962,000    7,182072750e-06    0,000000000e+00    0,000000000e+00    0,000000000e+00
 2227737736,000    6,042963832e-06    0,000000000e+00    0,000000000e+00    0,000000000e+00
 2231511510,000    9,577448509e-06    0,000000000e+00    0,000000000e+00    0,000000000e+00
 2235285283,000    6,042963832e-06    0,000000000e+00    0,000000000e+00    0,000000000e+00
 2239059057,000    4,024275313e-06    0,000000000e+00    0,000000000e+00    0,000000000e+00
 2242832830,000    8,029479432e-06    0,000000000e+00    0,000000000e+00    0,000000000e+00
 2246606604,000    1,797576078e-05    0,000000000e+00    0,000000000e+00    0,000000000e+00
 2250380378,000    5,366457572e-06    0,000000000e+00    0,000000000e+00    0,000000000e+00
 2254154151,000    7,156285847e-06    0,000000000e+00    0,000000000e+00    0,000000000e+00
 2257927925,000    1,427865845e-05    0,000000000e+00    0,000000000e+00    0,000000000e+00
 2261701698,000    2,397106437e-05    0,000000000e+00    0,000000000e+00    0,000000000e+00
 2265475472,000    1,797576078e-05    0,000000000e+00    0,000000000e+00    0,000000000e+00
 2269249246,000    1,427865845e-05    0,000000000e+00    0,000000000e+00    0,000000000e+00
 2273023019,000    1,697022890e-05    0,000000000e+00    0,000000000e+00    0,000000000e+00
 2276796793,000    1,512472500e-05    0,000000000e+00    0,000000000e+00    0,000000000e+00
 2280570566,000    5,684435109e-06    0,000000000e+00    0,000000000e+00    0,000000000e+00
 2284344340,000    4,782858014e-06    0,000000000e+00    0,000000000e+00    0,000000000e+00
 2288118114,000    4,515308319e-06    0,000000000e+00    0,000000000e+00    0,000000000e+00
 2291891887,000    5,684435109e-06    0,000000000e+00    0,000000000e+00    0,000000000e+00
 2295665661,000    6,755968116e-06    0,000000000e+00    0,000000000e+00    0,000000000e+00
 2299439434,000    5,684435109e-06    0,000000000e+00    0,000000000e+00    0,000000000e+00
 2303213208,000    5,366457572e-06    0,000000000e+00    0,000000000e+00    0,000000000e+00
 2306986982,000    5,684435109e-06    0,000000000e+00    0,000000000e+00    0,000000000e+00
 2310760755,000    6,378043963e-06    0,000000000e+00    0,000000000e+00    0,000000000e+00
 2314534529,000    4,247419838e-06    0,000000000e+00    0,000000000e+00    0,000000000e+00
 2318308302,000    5,347183560e-06    0,000000000e+00    0,000000000e+00    0,000000000e+00
 2322082076,000    8,474711649e-06    0,000000000e+00    0,000000000e+00    0,000000000e+00
 2325855850,000    1,268017058e-05    0,000000000e+00    0,000000000e+00    0,000000000e+00
 2329629623,000    1,130120927e-05    0,000000000e+00    0,000000000e+00    0,000000000e+00
 2333403397,000    8,474711649e-06    0,000000000e+00    0,000000000e+00    0,000000000e+00
 2337177170,000    8,474711649e-06    0,000000000e+00    0,000000000e+00    0,000000000e+00
 2340950944,000    1,130120927e-05    0,000000000e+00    0,000000000e+00    0,000000000e+00
 2344724718,000    6,355136975e-06    0,000000000e+00    0,000000000e+00    0,000000000e+00
 2348498491,000    7,553099294e-06    0,000000000e+00    0,000000000e+00    0,000000000e+00
 2352272265,000    5,999634595e-06    0,000000000e+00    0,000000000e+00    0,000000000e+00
 2356046038,000    2,530026250e-04    0,000000000e+00    0,000000000e+00    0,000000000e+00
 2359819812,000    3,373844374e-04    0,000000000e+00    0,000000000e+00    0,000000000e+00
 2363593586,000    1,897252077e-04    0,000000000e+00    0,000000000e+00    0,000000000e+00
 2367367359,000    3,785515146e-04    0,000000000e+00    0,000000000e+00    0,000000000e+00
 2371141133,000    4,247417382e-04    0,000000000e+00    0,000000000e+00    0,000000000e+00
 2374914906,000    4,009822151e-04    0,000000000e+00    0,000000000e+00    0,000000000e+00
 2378688680,000    3,785515146e-04    0,000000000e+00    0,000000000e+00    0,000000000e+00
 2382462454,000    3,185113892e-04    0,000000000e+00    0,000000000e+00    0,000000000e+00
 2386236227,000    2,679938916e-04    0,000000000e+00    0,000000000e+00    0,000000000e+00
 2390010001,000    2,009670716e-04    0,000000000e+00    0,000000000e+00    0,000000000e+00
 2393783774,000    5,327978870e-04    0,000000000e+00    0,000000000e+00    0,000000000e+00
 2397557548,000    1,784689266e-05    0,000000000e+00    0,000000000e+00    0,000000000e+00
 2401331322,000    1,417629301e-05    0,000000000e+00    0,000000000e+00    0,000000000e+00
 2405105095,000    7,525971796e-06    0,000000000e+00    0,000000000e+00    0,000000000e+00
 2408878869,000    7,525971796e-06    0,000000000e+00    0,000000000e+00    0,000000000e+00
 2412652642,000    7,971915693e-06    0,000000000e+00    0,000000000e+00    0,000000000e+00
 2416426416,000    1,003604484e-05    0,000000000e+00    0,000000000e+00    0,000000000e+00
 2420200190,000    1,338328093e-05    0,000000000e+00    0,000000000e+00    0,000000000e+00
 2423973963,000    4,482937584e-05    0,000000000e+00    0,000000000e+00    0,000000000e+00
 2427747737,000    3,560922923e-04    0,000000000e+00    0,000000000e+00    0,000000000e+00
 2431521510,000    9,474635590e-05    0,000000000e+00    0,000000000e+00    0,000000000e+00
 2435295284,000    5,643682925e-06    0,000000000e+00    0,000000000e+00    0,000000000e+00
 2439069058,000    6,707526609e-06    0,000000000e+00    0,000000000e+00    0,000000000e+00
 2442842831,000    1,338328093e-05    0,000000000e+00    0,000000000e+00    0,000000000e+00
 2446616605,000    1,192785658e-05    0,000000000e+00    0,000000000e+00    0,000000000e+00
 2450390378,000    1,263462946e-05    0,000000000e+00    0,000000000e+00    0,000000000e+00
 2454164152,000    1,263462946e-05    0,000000000e+00    0,000000000e+00    0,000000000e+00
 2457937926,000    9,474635590e-06    0,000000000e+00    0,000000000e+00    0,000000000e+00
 2461711699,000    1,003604484e-05    0,000000000e+00    0,000000000e+00    0,000000000e+00
 2465485473,000    8,944630281e-06    0,000000000e+00    0,000000000e+00    0,000000000e+00
 2469259246,000    5,643682925e-06    0,000000000e+00    0,000000000e+00    0,000000000e+00
 2473033020,000    5,029935437e-06    0,000000000e+00    0,000000000e+00    0,000000000e+00
 2476806793,000    5,978093213e-06    0,000000000e+00    0,000000000e+00    0,000000000e+00
 2480580567,000    4,748564152e-06    0,000000000e+00    0,000000000e+00    0,000000000e+00
 2484354341,000    4,748564152e-06    0,000000000e+00    0,000000000e+00    0,000000000e+00
 2488128114,000    5,643682925e-06    0,000000000e+00    0,000000000e+00    0,000000000e+00
 2491901888,000    8,944630281e-06    0,000000000e+00    0,000000000e+00    0,000000000e+00
 2495675661,000    5,978093213e-06    0,000000000e+00    0,000000000e+00    0,000000000e+00
 2499449435,000    1,063072068e-05    0,000000000e+00    0,000000000e+00    0,000000000e+00
 2503223209,000    1,126062034e-05    0,000000000e+00    0,000000000e+00    0,000000000e+00
 2506996982,000    5,029935437e-06    0,000000000e+00    0,000000000e+00    0,000000000e+00
 2510770756,000    8,444273590e-06    0,000000000e+00    0,000000000e+00    0,000000000e+00
 2514544529,000    1,417629301e-05    0,000000000e+00    0,000000000e+00    0,000000000e+00
 2518318303,000    1,263462946e-05    0,000000000e+00    0,000000000e+00    0,000000000e+00
 2522092077,000    1,501627867e-05    0,000000000e+00    0,000000000e+00    0,000000000e+00
 2525865850,000    1,192785658e-05    0,000000000e+00    0,000000000e+00    0,000000000e+00
 2529639624,000    6,707526609e-06    0,000000000e+00    0,000000000e+00    0,000000000e+00
 2533413397,000    1,684854971e-03    0,000000000e+00    0,000000000e+00    0,000000000e+00
 2537187171,000    5,643682925e-06    0,000000000e+00    0,000000000e+00    0,000000000e+00
 2540960945,000    6,332311841e-06    0,000000000e+00    0,000000000e+00    0,000000000e+00
 2544734718,000    5,327978670e-06    0,000000000e+00    0,000000000e+00    0,000000000e+00
 2548508492,000    7,104973974e-06    0,000000000e+00    0,000000000e+00    0,000000000e+00
 2552282265,000    5,327978670e-06    0,000000000e+00    0,000000000e+00    0,000000000e+00
 2556056039,000    6,332311841e-06    0,000000000e+00    0,000000000e+00    0,000000000e+00
 2559829813,000    6,707526609e-06    0,000000000e+00    0,000000000e+00    0,000000000e+00
 2563603586,000    1,263462946e-05    0,000000000e+00    0,000000000e+00    0,000000000e+00
 2567377360,000    1,338328093e-05    0,000000000e+00    0,000000000e+00    0,000000000e+00
 2571151133,000    6,332311841e-06    0,000000000e+00    0,000000000e+00    0,000000000e+00
 2574924907,000    1,192785658e-05    0,000000000e+00    0,000000000e+00    0,000000000e+00
 2578698681,000    1,890439125e-05    0,000000000e+00    0,000000000e+00    0,000000000e+00
 2582472454,000    1,263462946e-05    0,000000000e+00    0,000000000e+00    0,000000000e+00
 2586246228,000    1,784689266e-05    0,000000000e+00    0,000000000e+00    0,000000000e+00
 2590020001,000    2,002452857e-05    0,000000000e+00    0,000000000e+00    0,000000000e+00
 2593793775,000    5,978093213e-06    0,000000000e+00    0,000000000e+00    0,000000000e+00
 2597567549,000    8,444273590e-06    0,000000000e+00    0,000000000e+00    0,000000000e+00
 2601341322,000    1,417629301e-05    0,000000000e+00    0,000000000e+00    0,000000000e+00
 2605115096,000    1,338328093e-05    0,000000000e+00    0,000000000e+00    0,000000000e+00
 2608888869,000    1,192785658e-05    0,000000000e+00    0,000000000e+00    0,000000000e+00
 2612662643,000    7,971915693e-06    0,000000000e+00    0,000000000e+00    0,000000000e+00
 2616436417,000    1,003604484e-05    0,000000000e+00    0,000000000e+00    0,000000000e+00
 2620210190,000    7,525971796e-06    0,000000000e+00    0,000000000e+00    0,000000000e+00
 2623983964,000    1,590605279e-05    0,000000000e+00    0,000000000e+00    0,000000000e+00
 2627757737,000    5,978093213e-06    0,000000000e+00    0,000000000e+00    0,000000000e+00
 2631531511,000    5,029935273e-04    0,000000000e+00    0,000000000e+00    0,000000000e+00
 2635305285,000    6,707526627e-04    0,000000000e+00    0,000000000e+00    0,000000000e+00
 2639079058,000    3,560922923e-04    0,000000000e+00    0,000000000e+00    0,000000000e+00
 2642852832,000    5,029935273e-04    0,000000000e+00    0,000000000e+00    0,000000000e+00
 2646626605,000    3,995420702e-04    0,000000000e+00    0,000000000e+00    0,000000000e+00
 2650400379,000    3,771919291e-04    0,000000000e+00    0,000000000e+00    0,000000000e+00
 2654174153,000    4,232164938e-04    0,000000000e+00    0,000000000e+00    0,000000000e+00
 2657947926,000    4,482937584e-05    0,000000000e+00    0,000000000e+00    0,000000000e+00
 2661721700,000    5,643682744e-05    0,000000000e+00    0,000000000e+00    0,000000000e+00
 2665495473,000    4,482937584e-05    0,000000000e+00    0,000000000e+00    0,000000000e+00
 2669269247,000    6,332311841e-06    0,000000000e+00    0,000000000e+00    0,000000000e+00
 2673043021,000    5,029935437e-06    0,000000000e+00    0,000000000e+00    0,000000000e+00
 2676816794,000    8,444273590e-06    0,000000000e+00    0,000000000e+00    0,000000000e+00
 2680590568,000    6,332311841e-06    0,000000000e+00    0,000000000e+00    0,000000000e+00
 2684364341,000    8,444273590e-06    0,000000000e+00    0,000000000e+00    0,000000000e+00
 2688138115,000    5,978093213e-06    0,000000000e+00    0,000000000e+00    0,000000000e+00
 2691911889,000    6,332311841e-06    0,000000000e+00    0,000000000e+00    0,000000000e+00
 2695685662,000    6,707526609e-06    0,000000000e+00    0,000000000e+00    0,000000000e+00
 2699459436,000    7,525971796e-06    0,000000000e+00    0,000000000e+00    0,000000000e+00
 2703233209,000    7,971915693e-06    0,000000000e+00    0,000000000e+00    0,000000000e+00
 2707006983,000    9,474635590e-06    0,000000000e+00    0,000000000e+00    0,000000000e+00
 2710780757,000    1,192785658e-05    0,000000000e+00    0,000000000e+00    0,000000000e+00
 2714554530,000    7,104973974e-06    0,000000000e+00    0,000000000e+00    0,000000000e+00
 2718328304,000    1,063072068e-05    0,000000000e+00    0,000000000e+00    0,000000000e+00
 2722102077,000    6,707526609e-06    0,000000000e+00    0,000000000e+00    0,000000000e+00
 2725875851,000    5,978093213e-06    0,000000000e+00    0,000000000e+00    0,000000000e+00
 2729649625,000    5,643682925e-06    0,000000000e+00    0,000000000e+00    0,000000000e+00
 2733423398,000    5,643682925e-06    0,000000000e+00    0,000000000e+00    0,000000000e+00
 2737197172,000    1,338328093e-05    0,000000000e+00    0,000000000e+00    0,000000000e+00
 2740970945,000    5,978093213e-06    0,000000000e+00    0,000000000e+00    0,000000000e+00
 2744744719,000    7,525971796e-06    0,000000000e+00    0,000000000e+00    0,000000000e+00
 2748518493,000    6,332311841e-06    0,000000000e+00    0,000000000e+00    0,000000000e+00
 2752292266,000    5,029935437e-06    0,000000000e+00    0,000000000e+00    0,000000000e+00
 2756066040,000    5,643682925e-06    0,000000000e+00    0,000000000e+00    0,000000000e+00
 2759839813,000    5,978093213e-06    0,000000000e+00    0,000000000e+00    0,000000000e+00
 2763613587,000    7,525971796e-06    0,000000000e+00    0,000000000e+00    0,000000000e+00
 2767387361,000    8,944630281e-06    0,000000000e+00    0,000000000e+00    0,000000000e+00
 2771161134,000    1,126062034e-05    0,000000000e+00    0,000000000e+00    0,000000000e+00
 2774934908,000    7,525971796e-06    0,000000000e+00    0,000000000e+00    0,000000000e+00
 2778708681,000    7,104973974e-06    0,000000000e+00    0,000000000e+00    0,000000000e+00
 2782482455,000    5,978093213e-06    0,000000000e+00    0,000000000e+00    0,000000000e+00
 2786256229,000    6,332311841e-06    0,000000000e+00    0,000000000e+00    0,000000000e+00
 2790030002,000    4,748564152e-06    0,000000000e+00    0,000000000e+00    0,000000000e+00
 2793803776,000    5,643682925e-06    0,000000000e+00    0,000000000e+00    0,000000000e+00
 2797577549,000    4,748564152e-06    0,000000000e+00    0,000000000e+00    0,000000000e+00
 2801351323,000    1,338328093e-05    0,000000000e+00    0,000000000e+00    0,000000000e+00
 2805125097,000    6,635521913e-06    0,000000000e+00    0,000000000e+00    0,000000000e+00
 2808898870,000    6,108538400e-06    0,000000000e+00    0,000000000e+00    0,000000000e+00
 2812672644,000    6,174831015e-06    0,000000000e+00    0,000000000e+00    0,000000000e+00
 2816446417,000    6,540714367e-06    0,000000000e+00    0,000000000e+00    0,000000000e+00
 2820220191,000    6,564283012e-06    0,000000000e+00    0,000000000e+00    0,000000000e+00
 2823993965,000    5,850427442e-06    0,000000000e+00    0,000000000e+00    0,000000000e+00
 2827767738,000    8,785164027e-06    0,000000000e+00    0,000000000e+00    0,000000000e+00
 2831541512,000    8,785164027e-06    0,000000000e+00    0,000000000e+00    0,000000000e+00
 2835315285,000    8,785164027e-06    0,000000000e+00    0,000000000e+00    0,000000000e+00
 2839089059,000    4,680717211e-06    0,000000000e+00    0,000000000e+00    0,000000000e+00
 2842862833,000    7,003458904e-06    0,000000000e+00    0,000000000e+00    0,000000000e+00
 2846636606,000    7,886329513e-06    0,000000000e+00    0,000000000e+00    0,000000000e+00
 2850410380,000    7,028702839e-06    0,000000000e+00    0,000000000e+00    0,000000000e+00
 2854184153,000    5,935229183e-06    0,000000000e+00    0,000000000e+00    0,000000000e+00
 2857957927,000    6,659439805e-06    0,000000000e+00    0,000000000e+00    0,000000000e+00
 2861731701,000    6,309576293e-06    0,000000000e+00    0,000000000e+00    0,000000000e+00
 2865505474,000    5,956622772e-06    0,000000000e+00    0,000000000e+00    0,000000000e+00
 2869279248,000    9,474635590e-06    0,000000000e+00    0,000000000e+00    0,000000000e+00
 2873053021,000    8,444273590e-06    0,000000000e+00    0,000000000e+00    0,000000000e+00
 2876826795,000    7,971915693e-06    0,000000000e+00    0,000000000e+00    0,000000000e+00
 2880600569,000    7,553099294e-06    0,000000000e+00    0,000000000e+00    0,000000000e+00
 2884374342,000    8,000641174e-06    0,000000000e+00    0,000000000e+00    0,000000000e+00
 2888148116,000    8,505257938e-06    0,000000000e+00    0,000000000e+00    0,000000000e+00
 2891921889,000    1,010851338e-05    0,000000000e+00    0,000000000e+00    0,000000000e+00
 2895695663,000    8,535915185e-06    0,000000000e+00    0,000000000e+00    0,000000000e+00
 2899469437,000    9,041702469e-06    0,000000000e+00    0,000000000e+00    0,000000000e+00
 2903243210,000    7,607638963e-06    0,000000000e+00    0,000000000e+00    0,000000000e+00
 2907016984,000    5,725487881e-06    0,000000000e+00    0,000000000e+00    0,000000000e+00
 2910790757,000    5,102844170e-06    0,000000000e+00    0,000000000e+00    0,000000000e+00
 2914564531,000    6,829279755e-06    0,000000000e+00    0,000000000e+00    0,000000000e+00
 2918338305,000    6,829279755e-06    0,000000000e+00    0,000000000e+00    0,000000000e+00
 2922112078,000    6,108538400e-06    0,000000000e+00    0,000000000e+00    0,000000000e+00
 2925885852,000    5,766837148e-06    0,000000000e+00    0,000000000e+00    0,000000000e+00
 2929659625,000    5,444244380e-06    0,000000000e+00    0,000000000e+00    0,000000000e+00
 2933433399,000    6,130556812e-06    0,000000000e+00    0,000000000e+00    0,000000000e+00
 2937207173,000    6,493816272e-06    0,000000000e+00    0,000000000e+00    0,000000000e+00
 2940980946,000    6,152653896e-06    0,000000000e+00    0,000000000e+00    0,000000000e+00
 2944754720,000    6,903394478e-06    0,000000000e+00    0,000000000e+00    0,000000000e+00
 2948528493,000    6,174831015e-06    0,000000000e+00    0,000000000e+00    0,000000000e+00
 2952302267,000    6,540714367e-06    0,000000000e+00    0,000000000e+00    0,000000000e+00
 2956076041,000    6,564283012e-06    0,000000000e+00    0,000000000e+00    0,000000000e+00
 2959849814,000    7,801670108e-06    0,000000000e+00    0,000000000e+00    0,000000000e+00
 2963623588,000    7,801670108e-06    0,000000000e+00    0,000000000e+00    0,000000000e+00
 2967397361,000    6,978305919e-06    0,000000000e+00    0,000000000e+00    0,000000000e+00
 2971171135,000    7,391798135e-06    0,000000000e+00    0,000000000e+00    0,000000000e+00
 2974944909,000    7,003458904e-06    0,000000000e+00    0,000000000e+00    0,000000000e+00
 2978718682,000    6,611690424e-06    0,000000000e+00    0,000000000e+00    0,000000000e+00
 2982492456,000    7,028702839e-06    0,000000000e+00    0,000000000e+00    0,000000000e+00
 2986266229,000    6,264335298e-06    0,000000000e+00    0,000000000e+00    0,000000000e+00
 2990040003,000    5,935229183e-06    0,000000000e+00    0,000000000e+00    0,000000000e+00
 2993813777,000    5,603216323e-06    0,000000000e+00    0,000000000e+00    0,000000000e+00
