! tinySA-App
! Date: 2025-11-24 19:50:09
! Start: 2,19GHz Stop: 5,96GHz Points: 1000
! S-Parameter data: F S11 S21
# Hz S RI R 50
!     Frequency           S11 Real           S11 Imag           S21 Real           S21 Imag
 2190000000,000    1,021821663e-05    0,000000000e+00    0,000000000e+00    0,000000000e+00
 2193773774,000    8,597552551e-06    0,000000000e+00    0,000000000e+00    0,000000000e+00
 2197547547,000    1,021821663e-05    0,000000000e+00    0,000000000e+00    0,000000000e+00
 2201321321,000    1,082368635e-05    0,000000000e+00    0,000000000e+00    0,000000000e+00
 2205095094,000    6,447254236e-06    0,000000000e+00    0,000000000e+00    0,000000000e+00
 2208868868,000    8,597552551e-06    0,000000000e+00    0,000000000e+00    0,000000000e+00
 2212642642,000    8,116619938e-06    0,000000000e+00    0,000000000e+00    0,000000000e+00
 2216416415,000    7,662581083e-06    0,000000000e+00    0,000000000e+00    0,000000000e+00
 2220190189,000    7,233941687e-06    0,000000000e+00    0,000000000e+00    0,000000000e+00
 2223963962,000    6,447254236e-06    0,000000000e+00    0,000000000e+00    0,000000000e+00
 2227737736,000    5,424690698e-06    0,000000000e+00    0,000000000e+00    0,000000000e+00
 2231511510,000    6,829279755e-06    0,000000000e+00    0,000000000e+00    0,000000000e+00
 2235285283,000    9,611970199e-06    0,000000000e+00    0,000000000e+00    0,000000000e+00
 2239059057,000    6,064745776e-06    0,000000000e+00    0,000000000e+00    0,000000000e+00
 2242832830,000    1,281776804e-05    0,000000000e+00    0,000000000e+00    0,000000000e+00
 2246606604,000    9,611970199e-06    0,000000000e+00    0,000000000e+00    0,000000000e+00
 2250380378,000    1,281776804e-05    0,000000000e+00    0,000000000e+00    0,000000000e+00
 2254154151,000    1,210075061e-05    0,000000000e+00    0,000000000e+00    0,000000000e+00
 2257927925,000    1,357727160e-05    0,000000000e+00    0,000000000e+00    0,000000000e+00
 2261701698,000    1,142385463e-05    0,000000000e+00    0,000000000e+00    0,000000000e+00
 2265475472,000    1,018151761e-05    0,000000000e+00    0,000000000e+00    0,000000000e+00
 2269249246,000    6,064745776e-06    0,000000000e+00    0,000000000e+00    0,000000000e+00
 2273023019,000    6,804752047e-06    0,000000000e+00    0,000000000e+00    0,000000000e+00
 2276796793,000    5,725487881e-06    0,000000000e+00    0,000000000e+00    0,000000000e+00
 2280570566,000    8,087468814e-06    0,000000000e+00    0,000000000e+00    0,000000000e+00
 2284344340,000    5,102844170e-06    0,000000000e+00    0,000000000e+00    0,000000000e+00
 2288118114,000    6,424105777e-06    0,000000000e+00    0,000000000e+00    0,000000000e+00
 2291891887,000    7,207960607e-06    0,000000000e+00    0,000000000e+00    0,000000000e+00
 2295665661,000    7,635060683e-06    0,000000000e+00    0,000000000e+00    0,000000000e+00
 2299439434,000    5,405207958e-06    0,000000000e+00    0,000000000e+00    0,000000000e+00
 2303213208,000    6,064745776e-06    0,000000000e+00    0,000000000e+00    0,000000000e+00
 2306986982,000    5,102844170e-06    0,000000000e+00    0,000000000e+00    0,000000000e+00
 2310760755,000    7,207960607e-06    0,000000000e+00    0,000000000e+00    0,000000000e+00
 2314534529,000    7,607638963e-06    0,000000000e+00    0,000000000e+00    0,000000000e+00
 2318308302,000    7,182072750e-06    0,000000000e+00    0,000000000e+00    0,000000000e+00
 2322082076,000    6,780319836e-06    0,000000000e+00    0,000000000e+00    0,000000000e+00
 2325855850,000    7,607638963e-06    0,000000000e+00    0,000000000e+00    0,000000000e+00
 2329629623,000    9,041702469e-06    0,000000000e+00    0,000000000e+00    0,000000000e+00
 2333403397,000    8,535915185e-06    0,000000000e+00    0,000000000e+00    0,000000000e+00
 2337177170,000    6,042963832e-06    0,000000000e+00    0,000000000e+00    0,000000000e+00
 2340950944,000    6,042963832e-06    0,000000000e+00    0,000000000e+00    0,000000000e+00
 2344724718,000    5,704924661e-06    0,000000000e+00    0,000000000e+00    0,000000000e+00
 2348498491,000    5,704924661e-06    0,000000000e+00    0,000000000e+00    0,000000000e+00
 2352272265,000    6,042963832e-06    0,000000000e+00    0,000000000e+00    0,000000000e+00
 2356046038,000    1,277173214e-05    0,000000000e+00    0,000000000e+00    0,000000000e+00
 2359819812,000    8,058422281e-06    0,000000000e+00    0,000000000e+00    0,000000000e+00
 2363593586,000    2,405746782e-04    0,000000000e+00    0,000000000e+00    0,000000000e+00
 2367367359,000    2,024184505e-04    0,000000000e+00    0,000000000e+00    0,000000000e+00
 2371141133,000    2,699293545e-04    0,000000000e+00    0,000000000e+00    0,000000000e+00
 2374914906,000    1,910952997e-04    0,000000000e+00    0,000000000e+00    0,000000000e+00
 2378688680,000    3,028655010e-05    0,000000000e+00    0,000000000e+00    0,000000000e+00
 2382462454,000    2,405746782e-04    0,000000000e+00    0,000000000e+00    0,000000000e+00
 2386236227,000    3,028656647e-04    0,000000000e+00    0,000000000e+00    0,000000000e+00
 2390010001,000    1,804055501e-04    0,000000000e+00    0,000000000e+00    0,000000000e+00
 2393783774,000    1,427865936e-04    0,000000000e+00    0,000000000e+00    0,000000000e+00
 2397557548,000    5,066261565e-06    0,000000000e+00    0,000000000e+00    0,000000000e+00
 2401331322,000    6,755968116e-06    0,000000000e+00    0,000000000e+00    0,000000000e+00
 2405105095,000    4,782858014e-05    0,000000000e+00    0,000000000e+00    0,000000000e+00
 2408878869,000    1,070748331e-04    0,000000000e+00    0,000000000e+00    0,000000000e+00
 2412652642,000    1,697022890e-05    0,000000000e+00    0,000000000e+00    0,000000000e+00
 2416426416,000    1,904089731e-05    0,000000000e+00    0,000000000e+00    0,000000000e+00
 2420200190,000    2,689598841e-05    0,000000000e+00    0,000000000e+00    0,000000000e+00
 2423973963,000    1,602092561e-05    0,000000000e+00    0,000000000e+00    0,000000000e+00
 2427747737,000    1,797576078e-05    0,000000000e+00    0,000000000e+00    0,000000000e+00
 2431521510,000    1,134194463e-05    0,000000000e+00    0,000000000e+00    0,000000000e+00
 2435295284,000    7,580315923e-06    0,000000000e+00    0,000000000e+00    0,000000000e+00
 2439069058,000    1,201399937e-05    0,000000000e+00    0,000000000e+00    0,000000000e+00
 2442842831,000    1,904089731e-05    0,000000000e+00    0,000000000e+00    0,000000000e+00
 2446616605,000    2,263016358e-05    0,000000000e+00    0,000000000e+00    0,000000000e+00
 2450390378,000    6,755968116e-06    0,000000000e+00    0,000000000e+00    0,000000000e+00
 2454164152,000    6,755968116e-06    0,000000000e+00    0,000000000e+00    0,000000000e+00
 2457937926,000    7,580315923e-06    0,000000000e+00    0,000000000e+00    0,000000000e+00
 2461711699,000    7,580315923e-06    0,000000000e+00    0,000000000e+00    0,000000000e+00
 2465485473,000    7,580315923e-06    0,000000000e+00    0,000000000e+00    0,000000000e+00
 2469259246,000    1,070748642e-02    0,000000000e+00    0,000000000e+00    0,000000000e+00
 2473033020,000    8,029479432e-06    0,000000000e+00    0,000000000e+00    0,000000000e+00
 2476806793,000    7,580315923e-06    0,000000000e+00    0,000000000e+00    0,000000000e+00
 2480580567,000    6,021260106e-06    0,000000000e+00    0,000000000e+00    0,000000000e+00
 2484354341,000    6,755968116e-06    0,000000000e+00    0,000000000e+00    0,000000000e+00
 2488128114,000    1,602092561e-05    0,000000000e+00    0,000000000e+00    0,000000000e+00
 2491901888,000    6,755968116e-06    0,000000000e+00    0,000000000e+00    0,000000000e+00
 2495675661,000    1,797576078e-05    0,000000000e+00    0,000000000e+00    0,000000000e+00
 2499449435,000    7,156285847e-06    0,000000000e+00    0,000000000e+00    0,000000000e+00
 2503223209,000    2,539144407e-05    0,000000000e+00    0,000000000e+00    0,000000000e+00
 2506996982,000    6,378043963e-06    0,000000000e+00    0,000000000e+00    0,000000000e+00
 2510770756,000    5,684435109e-06    0,000000000e+00    0,000000000e+00    0,000000000e+00
 2514544529,000    5,366457572e-06    0,000000000e+00    0,000000000e+00    0,000000000e+00
 2518318303,000    5,366457572e-06    0,000000000e+00    0,000000000e+00    0,000000000e+00
 2522092077,000    6,021260106e-06    0,000000000e+00    0,000000000e+00    0,000000000e+00
 2525865850,000    8,029479432e-06    0,000000000e+00    0,000000000e+00    0,000000000e+00
 2529639624,000    5,366457572e-06    0,000000000e+00    0,000000000e+00    0,000000000e+00
 2533413397,000    6,755968116e-06    0,000000000e+00    0,000000000e+00    0,000000000e+00
 2537187171,000    6,755968116e-06    0,000000000e+00    0,000000000e+00    0,000000000e+00
 2540960945,000    9,543060514e-06    0,000000000e+00    0,000000000e+00    0,000000000e+00
 2544734718,000    6,378043963e-06    0,000000000e+00    0,000000000e+00    0,000000000e+00
 2548508492,000    8,029479432e-06    0,000000000e+00    0,000000000e+00    0,000000000e+00
 2552282265,000    1,010851338e-05    0,000000000e+00    0,000000000e+00    0,000000000e+00
 2556056039,000    5,684435109e-06    0,000000000e+00    0,000000000e+00    0,000000000e+00
 2559829813,000    8,505257938e-06    0,000000000e+00    0,000000000e+00    0,000000000e+00
 2563603586,000    2,539144407e-05    0,000000000e+00    0,000000000e+00    0,000000000e+00
 2567377360,000    2,016914550e-05    0,000000000e+00    0,000000000e+00    0,000000000e+00
 2571151133,000    2,263016358e-05    0,000000000e+00    0,000000000e+00    0,000000000e+00
 2574924907,000    3,799160186e-05    0,000000000e+00    0,000000000e+00    0,000000000e+00
 2578698681,000    5,366457572e-06    0,000000000e+00    0,000000000e+00    0,000000000e+00
 2582472454,000    6,378043963e-06    0,000000000e+00    0,000000000e+00    0,000000000e+00
 2586246228,000    6,378043963e-06    0,000000000e+00    0,000000000e+00    0,000000000e+00
 2590020001,000    7,156285847e-06    0,000000000e+00    0,000000000e+00    0,000000000e+00
 2593793775,000    8,505257938e-06    0,000000000e+00    0,000000000e+00    0,000000000e+00
 2597567549,000    6,755968116e-06    0,000000000e+00    0,000000000e+00    0,000000000e+00
 2601341322,000    7,580315923e-06    0,000000000e+00    0,000000000e+00    0,000000000e+00
 2605115096,000    6,755968116e-06    0,000000000e+00    0,000000000e+00    0,000000000e+00
 2608888869,000    6,021260106e-06    0,000000000e+00    0,000000000e+00    0,000000000e+00
 2612662643,000    8,029479432e-06    0,000000000e+00    0,000000000e+00    0,000000000e+00
 2616436417,000    6,021260106e-06    0,000000000e+00    0,000000000e+00    0,000000000e+00
 2620210190,000    5,066261565e-06    0,000000000e+00    0,000000000e+00    0,000000000e+00
 2623983964,000    5,684435109e-06    0,000000000e+00    0,000000000e+00    0,000000000e+00
 2627757737,000    5,366457572e-06    0,000000000e+00    0,000000000e+00    0,000000000e+00
 2631531511,000    5,684437929e-04    0,000000000e+00    0,000000000e+00    0,000000000e+00
 2635305285,000    5,684437929e-04    0,000000000e+00    0,000000000e+00    0,000000000e+00
 2639079058,000    4,515308246e-04    0,000000000e+00    0,000000000e+00    0,000000000e+00
 2642852832,000    2,689598768e-04    0,000000000e+00    0,000000000e+00    0,000000000e+00
 2646626605,000    4,515308246e-04    0,000000000e+00    0,000000000e+00    0,000000000e+00
 2650400379,000    4,262727161e-04    0,000000000e+00    0,000000000e+00    0,000000000e+00
 2654174153,000    4,262727161e-04    0,000000000e+00    0,000000000e+00    0,000000000e+00
 2657947926,000    3,386003664e-05    0,000000000e+00    0,000000000e+00    0,000000000e+00
 2661721700,000    6,755968207e-05    0,000000000e+00    0,000000000e+00    0,000000000e+00
 2665495473,000    3,799160186e-05    0,000000000e+00    0,000000000e+00    0,000000000e+00
 2669269247,000    1,201399937e-05    0,000000000e+00    0,000000000e+00    0,000000000e+00
 2673043021,000    8,505257938e-06    0,000000000e+00    0,000000000e+00    0,000000000e+00
 2676816794,000    1,010851338e-05    0,000000000e+00    0,000000000e+00    0,000000000e+00
 2680590568,000    6,755968116e-06    0,000000000e+00    0,000000000e+00    0,000000000e+00
 2684364341,000    6,021260106e-06    0,000000000e+00    0,000000000e+00    0,000000000e+00
 2688138115,000    6,755968116e-06    0,000000000e+00    0,000000000e+00    0,000000000e+00
 2691911889,000    6,021260106e-06    0,000000000e+00    0,000000000e+00    0,000000000e+00
 2695685662,000    7,580315923e-06    0,000000000e+00    0,000000000e+00    0,000000000e+00
 2699459436,000    7,580315923e-06    0,000000000e+00    0,000000000e+00    0,000000000e+00
 2703233209,000    5,366457572e-06    0,000000000e+00    0,000000000e+00    0,000000000e+00
 2707006983,000    9,009228052e-06    0,000000000e+00    0,000000000e+00    0,000000000e+00
 2710780757,000    5,366457572e-06    0,000000000e+00    0,000000000e+00    0,000000000e+00
 2714554530,000    8,029479432e-06    0,000000000e+00    0,000000000e+00    0,000000000e+00
 2718328304,000    6,378043963e-06    0,000000000e+00    0,000000000e+00    0,000000000e+00
 2722102077,000    6,378043963e-06    0,000000000e+00    0,000000000e+00    0,000000000e+00
 2725875851,000    5,366457572e-06    0,000000000e+00    0,000000000e+00    0,000000000e+00
 2729649625,000    6,755968116e-06    0,000000000e+00    0,000000000e+00    0,000000000e+00
 2733423398,000    7,580315923e-06    0,000000000e+00    0,000000000e+00    0,000000000e+00
 2737197172,000    7,156285847e-06    0,000000000e+00    0,000000000e+00    0,000000000e+00
 2740970945,000    5,684435109e-06    0,000000000e+00    0,000000000e+00    0,000000000e+00
 2744744719,000    6,755968116e-06    0,000000000e+00    0,000000000e+00    0,000000000e+00
 2748518493,000    5,684435109e-06    0,000000000e+00    0,000000000e+00    0,000000000e+00
 2752292266,000    4,515308319e-06    0,000000000e+00    0,000000000e+00    0,000000000e+00
 2756066040,000    5,684435109e-06    0,000000000e+00    0,000000000e+00    0,000000000e+00
 2759839813,000    1,134194463e-05    0,000000000e+00    0,000000000e+00    0,000000000e+00
 2763613587,000    1,010851338e-05    0,000000000e+00    0,000000000e+00    0,000000000e+00
 2767387361,000    1,134194463e-05    0,000000000e+00    0,000000000e+00    0,000000000e+00
 2771161134,000    1,797576078e-05    0,000000000e+00    0,000000000e+00    0,000000000e+00
 2774934908,000    6,755968116e-06    0,000000000e+00    0,000000000e+00    0,000000000e+00
 2778708681,000    6,378043963e-06    0,000000000e+00    0,000000000e+00    0,000000000e+00
 2782482455,000    5,366457572e-06    0,000000000e+00    0,000000000e+00    0,000000000e+00
 2786256229,000    5,366457572e-06    0,000000000e+00    0,000000000e+00    0,000000000e+00
 2790030002,000    6,021260106e-06    0,000000000e+00    0,000000000e+00    0,000000000e+00
 2793803776,000    8,029479432e-06    0,000000000e+00    0,000000000e+00    0,000000000e+00
 2797577549,000    1,010851338e-05    0,000000000e+00    0,000000000e+00    0,000000000e+00
 2801351323,000    8,505257938e-06    0,000000000e+00    0,000000000e+00    0,000000000e+00
 2805125097,000    1,051658910e-05    0,000000000e+00    0,000000000e+00    0,000000000e+00
 2808898870,000    6,953242973e-06    0,000000000e+00    0,000000000e+00    0,000000000e+00
 2812672644,000    7,391798135e-06    0,000000000e+00    0,000000000e+00    0,000000000e+00
 2816446417,000    6,219418992e-06    0,000000000e+00    0,000000000e+00    0,000000000e+00
 2820220191,000    5,892672561e-06    0,000000000e+00    0,000000000e+00    0,000000000e+00
 2823993965,000    6,611690424e-06    0,000000000e+00    0,000000000e+00    0,000000000e+00
 2827767738,000    8,323622751e-06    0,000000000e+00    0,000000000e+00    0,000000000e+00
 2831541512,000    5,583092388e-06    0,000000000e+00    0,000000000e+00    0,000000000e+00
 2835315285,000    6,635521913e-06    0,000000000e+00    0,000000000e+00    0,000000000e+00
 2839089059,000    5,289776254e-06    0,000000000e+00    0,000000000e+00    0,000000000e+00
 2842862833,000    7,054029993e-06    0,000000000e+00    0,000000000e+00    0,000000000e+00
 2846636606,000    1,678803710e-05    0,000000000e+00    0,000000000e+00    0,000000000e+00
 2850410380,000    5,956622772e-06    0,000000000e+00    0,000000000e+00    0,000000000e+00
 2854184153,000    7,525971796e-06    0,000000000e+00    0,000000000e+00    0,000000000e+00
 2857957927,000    5,643682925e-06    0,000000000e+00    0,000000000e+00    0,000000000e+00
 2861731701,000    1,003604484e-05    0,000000000e+00    0,000000000e+00    0,000000000e+00
 2865505474,000    5,999634595e-06    0,000000000e+00    0,000000000e+00    0,000000000e+00
 2869279248,000    5,684435109e-06    0,000000000e+00    0,000000000e+00    0,000000000e+00
 2873053021,000    5,066261565e-06    0,000000000e+00    0,000000000e+00    0,000000000e+00
 2876826795,000    6,755968116e-06    0,000000000e+00    0,000000000e+00    0,000000000e+00
 2880600569,000    5,385794793e-06    0,000000000e+00    0,000000000e+00    0,000000000e+00
 2884374342,000    8,058422281e-06    0,000000000e+00    0,000000000e+00    0,000000000e+00
 2888148116,000    9,074282389e-06    0,000000000e+00    0,000000000e+00    0,000000000e+00
 2891921889,000    5,102844170e-06    0,000000000e+00    0,000000000e+00    0,000000000e+00
 2895695663,000    7,207960607e-06    0,000000000e+00    0,000000000e+00    0,000000000e+00
 2899469437,000    5,746125225e-06    0,000000000e+00    0,000000000e+00    0,000000000e+00
 2903243210,000    6,108538400e-06    0,000000000e+00    0,000000000e+00    0,000000000e+00
 2907016984,000    5,766837148e-06    0,000000000e+00    0,000000000e+00    0,000000000e+00
 2910790757,000    6,108538400e-06    0,000000000e+00    0,000000000e+00    0,000000000e+00
 2914564531,000    5,463868092e-06    0,000000000e+00    0,000000000e+00    0,000000000e+00
 2918338305,000    8,659643754e-06    0,000000000e+00    0,000000000e+00    0,000000000e+00
 2922112078,000    9,751295693e-06    0,000000000e+00    0,000000000e+00    0,000000000e+00
 2925885852,000    6,152653896e-06    0,000000000e+00    0,000000000e+00    0,000000000e+00
 2929659625,000    6,928270068e-06    0,000000000e+00    0,000000000e+00    0,000000000e+00
 2933433399,000    6,540714367e-06    0,000000000e+00    0,000000000e+00    0,000000000e+00
 2937207173,000    8,234269444e-06    0,000000000e+00    0,000000000e+00    0,000000000e+00
 2940980946,000    5,523158507e-06    0,000000000e+00    0,000000000e+00    0,000000000e+00
 2944754720,000    7,365249985e-06    0,000000000e+00    0,000000000e+00    0,000000000e+00
 2948528493,000    8,785164027e-06    0,000000000e+00    0,000000000e+00    0,000000000e+00
 2952302267,000    6,978305919e-06    0,000000000e+00    0,000000000e+00    0,000000000e+00
 2956076041,000    8,323622751e-06    0,000000000e+00    0,000000000e+00    0,000000000e+00
 2959849814,000    5,563046670e-06    0,000000000e+00    0,000000000e+00    0,000000000e+00
 2963623588,000    5,563046670e-06    0,000000000e+00    0,000000000e+00    0,000000000e+00
 2967397361,000    8,353625162e-06    0,000000000e+00    0,000000000e+00    0,000000000e+00
 2971171135,000    6,659439805e-06    0,000000000e+00    0,000000000e+00    0,000000000e+00
 2974944909,000    7,472009202e-06    0,000000000e+00    0,000000000e+00    0,000000000e+00
 2978718682,000    5,935229183e-06    0,000000000e+00    0,000000000e+00    0,000000000e+00
 2982492456,000    7,079456282e-06    0,000000000e+00    0,000000000e+00    0,000000000e+00
 2986266229,000    1,412537858e-05    0,000000000e+00    0,000000000e+00    0,000000000e+00
 2990040003,000    7,104973974e-06    0,000000000e+00    0,000000000e+00    0,000000000e+00
 2993813777,000    7,525971796e-06    0,000000000e+00    0,000000000e+00    0,000000000e+00
