! tinySA-App
! Date: 2025-11-24 19:50:17
! Start: 2,19GHz Stop: 5,96GHz Points: 1000
! S-Parameter data: F S11 S21
# Hz S RI R 50
!     Frequency           S11 Real           S11 Imag           S21 Real           S21 Imag
 2190000000,000    9,646616490e-06    0,000000000e+00    0,000000000e+00    0,000000000e+00
 2193773774,000    4,564310530e-06    0,000000000e+00    0,000000000e+00    0,000000000e+00
 2197547547,000    5,746125225e-06    0,000000000e+00    0,000000000e+00    0,000000000e+00
 2201321321,000    6,447254236e-06    0,000000000e+00    0,000000000e+00    0,000000000e+00
 2205095094,000    5,424690698e-06    0,000000000e+00    0,000000000e+00    0,000000000e+00
 2208868868,000    9,106991456e-06    0,000000000e+00    0,000000000e+00    0,000000000e+00
 2212642642,000    9,106991456e-06    0,000000000e+00    0,000000000e+00    0,000000000e+00
 2216416415,000    7,662581083e-06    0,000000000e+00    0,000000000e+00    0,000000000e+00
 2220190189,000    6,447254236e-06    0,000000000e+00    0,000000000e+00    0,000000000e+00
 2223963962,000    9,646616490e-06    0,000000000e+00    0,000000000e+00    0,000000000e+00
 2227737736,000    8,597552551e-06    0,000000000e+00    0,000000000e+00    0,000000000e+00
 2231511510,000    6,829279755e-06    0,000000000e+00    0,000000000e+00    0,000000000e+00
 2235285283,000    4,564310530e-06    0,000000000e+00    0,000000000e+00    0,000000000e+00
 2239059057,000    5,725487881e-06    0,000000000e+00    0,000000000e+00    0,000000000e+00
 2242832830,000    5,102844170e-06    0,000000000e+00    0,000000000e+00    0,000000000e+00
 2246606604,000    7,207960607e-06    0,000000000e+00    0,000000000e+00    0,000000000e+00
 2250380378,000    7,207960607e-06    0,000000000e+00    0,000000000e+00    0,000000000e+00
 2254154151,000    5,725487881e-06    0,000000000e+00    0,000000000e+00    0,000000000e+00
 2257927925,000    6,064745776e-06    0,000000000e+00    0,000000000e+00    0,000000000e+00
 2261701698,000    9,074282389e-06    0,000000000e+00    0,000000000e+00    0,000000000e+00
 2265475472,000    6,804752047e-06    0,000000000e+00    0,000000000e+00    0,000000000e+00
 2269249246,000    6,064745776e-06    0,000000000e+00    0,000000000e+00    0,000000000e+00
 2273023019,000    8,566683391e-06    0,000000000e+00    0,000000000e+00    0,000000000e+00
 2276796793,000    9,611970199e-06    0,000000000e+00    0,000000000e+00    0,000000000e+00
 2280570566,000    6,064745776e-06    0,000000000e+00    0,000000000e+00    0,000000000e+00
 2284344340,000    6,064745776e-06    0,000000000e+00    0,000000000e+00    0,000000000e+00
 2288118114,000    7,207960607e-06    0,000000000e+00    0,000000000e+00    0,000000000e+00
 2291891887,000    5,725487881e-06    0,000000000e+00    0,000000000e+00    0,000000000e+00
 2295665661,000    5,725487881e-06    0,000000000e+00    0,000000000e+00    0,000000000e+00
 2299439434,000    5,405207958e-06    0,000000000e+00    0,000000000e+00    0,000000000e+00
 2303213208,000    6,804752047e-06    0,000000000e+00    0,000000000e+00    0,000000000e+00
 2306986982,000    5,405207958e-06    0,000000000e+00    0,000000000e+00    0,000000000e+00
 2310760755,000    8,087468814e-06    0,000000000e+00    0,000000000e+00    0,000000000e+00
 2314534529,000    6,042963832e-06    0,000000000e+00    0,000000000e+00    0,000000000e+00
 2318308302,000    4,800097940e-06    0,000000000e+00    0,000000000e+00    0,000000000e+00
 2322082076,000    6,042963832e-06    0,000000000e+00    0,000000000e+00    0,000000000e+00
 2325855850,000    5,704924661e-06    0,000000000e+00    0,000000000e+00    0,000000000e+00
 2329629623,000    1,205730314e-05    0,000000000e+00    0,000000000e+00    0,000000000e+00
 2333403397,000    1,804055501e-05    0,000000000e+00    0,000000000e+00    0,000000000e+00
 2337177170,000    1,205730314e-05    0,000000000e+00    0,000000000e+00    0,000000000e+00
 2340950944,000    5,704924661e-06    0,000000000e+00    0,000000000e+00    0,000000000e+00
 2344724718,000    5,084522854e-06    0,000000000e+00    0,000000000e+00    0,000000000e+00
 2348498491,000    9,041702469e-06    0,000000000e+00    0,000000000e+00    0,000000000e+00
 2352272265,000    6,401033261e-06    0,000000000e+00    0,000000000e+00    0,000000000e+00
 2356046038,000    4,278089909e-04    0,000000000e+00    0,000000000e+00    0,000000000e+00
 2359819812,000    3,398208355e-04    0,000000000e+00    0,000000000e+00    0,000000000e+00
 2363593586,000    2,405746782e-04    0,000000000e+00    0,000000000e+00    0,000000000e+00
 2367367359,000    3,599565825e-04    0,000000000e+00    0,000000000e+00    0,000000000e+00
 2371141133,000    4,278089909e-04    0,000000000e+00    0,000000000e+00    0,000000000e+00
 2374914906,000    4,278089909e-04    0,000000000e+00    0,000000000e+00    0,000000000e+00
 2378688680,000    1,910952997e-04    0,000000000e+00    0,000000000e+00    0,000000000e+00
 2382462454,000    2,271172125e-04    0,000000000e+00    0,000000000e+00    0,000000000e+00
 2386236227,000    4,531583691e-04    0,000000000e+00    0,000000000e+00    0,000000000e+00
 2390010001,000    4,024273076e-04    0,000000000e+00    0,000000000e+00    0,000000000e+00
 2393783774,000    3,196594480e-04    0,000000000e+00    0,000000000e+00    0,000000000e+00
 2397557548,000    4,262724906e-05    0,000000000e+00    0,000000000e+00    0,000000000e+00
 2401331322,000    6,378043963e-06    0,000000000e+00    0,000000000e+00    0,000000000e+00
 2405105095,000    5,684438162e-03    0,000000000e+00    0,000000000e+00    0,000000000e+00
 2408878869,000    5,684435018e-05    0,000000000e+00    0,000000000e+00    0,000000000e+00
 2412652642,000    6,755968116e-06    0,000000000e+00    0,000000000e+00    0,000000000e+00
 2416426416,000    1,070748331e-04    0,000000000e+00    0,000000000e+00    0,000000000e+00
 2420200190,000    2,689598841e-05    0,000000000e+00    0,000000000e+00    0,000000000e+00
 2423973963,000    1,797576078e-05    0,000000000e+00    0,000000000e+00    0,000000000e+00
 2427747737,000    9,009228052e-06    0,000000000e+00    0,000000000e+00    0,000000000e+00
 2431521510,000    6,378043963e-06    0,000000000e+00    0,000000000e+00    0,000000000e+00
 2435295284,000    8,505257938e-06    0,000000000e+00    0,000000000e+00    0,000000000e+00
 2439069058,000    9,009228052e-06    0,000000000e+00    0,000000000e+00    0,000000000e+00
 2442842831,000    5,684435109e-06    0,000000000e+00    0,000000000e+00    0,000000000e+00
 2446616605,000    2,689598841e-05    0,000000000e+00    0,000000000e+00    0,000000000e+00
 2450390378,000    1,512472500e-05    0,000000000e+00    0,000000000e+00    0,000000000e+00
 2454164152,000    7,156285847e-06    0,000000000e+00    0,000000000e+00    0,000000000e+00
 2457937926,000    9,543060514e-06    0,000000000e+00    0,000000000e+00    0,000000000e+00
 2461711699,000    8,505257938e-06    0,000000000e+00    0,000000000e+00    0,000000000e+00
 2465485473,000    1,602092561e-05    0,000000000e+00    0,000000000e+00    0,000000000e+00
 2469259246,000    1,512472500e-05    0,000000000e+00    0,000000000e+00    0,000000000e+00
 2473033020,000    4,782858014e-06    0,000000000e+00    0,000000000e+00    0,000000000e+00
 2476806793,000    5,066261565e-06    0,000000000e+00    0,000000000e+00    0,000000000e+00
 2480580567,000    6,021260106e-06    0,000000000e+00    0,000000000e+00    0,000000000e+00
 2484354341,000    4,262725270e-06    0,000000000e+00    0,000000000e+00    0,000000000e+00
 2488128114,000    6,021260106e-06    0,000000000e+00    0,000000000e+00    0,000000000e+00
 2491901888,000    1,134194463e-05    0,000000000e+00    0,000000000e+00    0,000000000e+00
 2495675661,000    9,543060514e-06    0,000000000e+00    0,000000000e+00    0,000000000e+00
 2499449435,000    4,262725270e-06    0,000000000e+00    0,000000000e+00    0,000000000e+00
 2503223209,000    4,782858014e-06    0,000000000e+00    0,000000000e+00    0,000000000e+00
 2506996982,000    1,427865845e-05    0,000000000e+00    0,000000000e+00    0,000000000e+00
 2510770756,000    9,543060514e-06    0,000000000e+00    0,000000000e+00    0,000000000e+00
 2514544529,000    5,684435109e-06    0,000000000e+00    0,000000000e+00    0,000000000e+00
 2518318303,000    5,684435109e-06    0,000000000e+00    0,000000000e+00    0,000000000e+00
 2522092077,000    5,684435109e-06    0,000000000e+00    0,000000000e+00    0,000000000e+00
 2525865850,000    7,156285847e-06    0,000000000e+00    0,000000000e+00    0,000000000e+00
 2529639624,000    5,066261292e-05    0,000000000e+00    0,000000000e+00    0,000000000e+00
 2533413397,000    6,378043963e-06    0,000000000e+00    0,000000000e+00    0,000000000e+00
 2537187171,000    9,543060514e-06    0,000000000e+00    0,000000000e+00    0,000000000e+00
 2540960945,000    5,684435109e-06    0,000000000e+00    0,000000000e+00    0,000000000e+00
 2544734718,000    8,029479432e-06    0,000000000e+00    0,000000000e+00    0,000000000e+00
 2548508492,000    6,021260106e-06    0,000000000e+00    0,000000000e+00    0,000000000e+00
 2552282265,000    1,427865845e-05    0,000000000e+00    0,000000000e+00    0,000000000e+00
 2556056039,000    9,543060514e-06    0,000000000e+00    0,000000000e+00    0,000000000e+00
 2559829813,000    4,262725270e-06    0,000000000e+00    0,000000000e+00    0,000000000e+00
 2563603586,000    6,378043963e-06    0,000000000e+00    0,000000000e+00    0,000000000e+00
 2567377360,000    5,684435109e-06    0,000000000e+00    0,000000000e+00    0,000000000e+00
 2571151133,000    4,782858014e-06    0,000000000e+00    0,000000000e+00    0,000000000e+00
 2574924907,000    6,021260106e-06    0,000000000e+00    0,000000000e+00    0,000000000e+00
 2578698681,000    1,697022890e-05    0,000000000e+00    0,000000000e+00    0,000000000e+00
 2582472454,000    5,366457481e-05    0,000000000e+00    0,000000000e+00    0,000000000e+00
 2586246228,000    5,684435109e-06    0,000000000e+00    0,000000000e+00    0,000000000e+00
 2590020001,000    6,021260106e-06    0,000000000e+00    0,000000000e+00    0,000000000e+00
 2593793775,000    5,366457572e-06    0,000000000e+00    0,000000000e+00    0,000000000e+00
 2597567549,000    6,021260106e-06    0,000000000e+00    0,000000000e+00    0,000000000e+00
 2601341322,000    6,378043963e-06    0,000000000e+00    0,000000000e+00    0,000000000e+00
 2605115096,000    5,684435109e-06    0,000000000e+00    0,000000000e+00    0,000000000e+00
 2608888869,000    6,021260106e-06    0,000000000e+00    0,000000000e+00    0,000000000e+00
 2612662643,000    2,016914550e-05    0,000000000e+00    0,000000000e+00    0,000000000e+00
 2616436417,000    5,366457572e-06    0,000000000e+00    0,000000000e+00    0,000000000e+00
 2620210190,000    5,366457572e-06    0,000000000e+00    0,000000000e+00    0,000000000e+00
 2623983964,000    4,782858014e-06    0,000000000e+00    0,000000000e+00    0,000000000e+00
 2627757737,000    8,029479432e-06    0,000000000e+00    0,000000000e+00    0,000000000e+00
 2631531511,000    1,134194434e-03    0,000000000e+00    0,000000000e+00    0,000000000e+00
 2635305285,000    4,515308246e-04    0,000000000e+00    0,000000000e+00    0,000000000e+00
 2639079058,000    5,066261510e-04    0,000000000e+00    0,000000000e+00    0,000000000e+00
 2642852832,000    4,782858305e-04    0,000000000e+00    0,000000000e+00    0,000000000e+00
 2646626605,000    2,397107746e-04    0,000000000e+00    0,000000000e+00    0,000000000e+00
 2650400379,000    3,586637613e-04    0,000000000e+00    0,000000000e+00    0,000000000e+00
 2654174153,000    2,689598768e-04    0,000000000e+00    0,000000000e+00    0,000000000e+00
 2657947926,000    6,755968207e-05    0,000000000e+00    0,000000000e+00    0,000000000e+00
 2661721700,000    4,782858014e-05    0,000000000e+00    0,000000000e+00    0,000000000e+00
 2665495473,000    5,366457481e-05    0,000000000e+00    0,000000000e+00    0,000000000e+00
 2669269247,000    5,684435109e-06    0,000000000e+00    0,000000000e+00    0,000000000e+00
 2673043021,000    4,262725270e-06    0,000000000e+00    0,000000000e+00    0,000000000e+00
 2676816794,000    5,066261565e-06    0,000000000e+00    0,000000000e+00    0,000000000e+00
 2680590568,000    8,029479432e-06    0,000000000e+00    0,000000000e+00    0,000000000e+00
 2684364341,000    8,029479432e-06    0,000000000e+00    0,000000000e+00    0,000000000e+00
 2688138115,000    5,066261565e-06    0,000000000e+00    0,000000000e+00    0,000000000e+00
 2691911889,000    4,782858014e-06    0,000000000e+00    0,000000000e+00    0,000000000e+00
 2695685662,000    5,366457572e-06    0,000000000e+00    0,000000000e+00    0,000000000e+00
 2699459436,000    5,066261565e-06    0,000000000e+00    0,000000000e+00    0,000000000e+00
 2703233209,000    6,378043963e-06    0,000000000e+00    0,000000000e+00    0,000000000e+00
 2707006983,000    4,515308319e-06    0,000000000e+00    0,000000000e+00    0,000000000e+00
 2710780757,000    7,580315923e-06    0,000000000e+00    0,000000000e+00    0,000000000e+00
 2714554530,000    5,066261565e-06    0,000000000e+00    0,000000000e+00    0,000000000e+00
 2718328304,000    5,684435109e-06    0,000000000e+00    0,000000000e+00    0,000000000e+00
 2722102077,000    6,021260106e-06    0,000000000e+00    0,000000000e+00    0,000000000e+00
 2725875851,000    1,010851338e-05    0,000000000e+00    0,000000000e+00    0,000000000e+00
 2729649625,000    1,904089731e-05    0,000000000e+00    0,000000000e+00    0,000000000e+00
 2733423398,000    5,366457572e-06    0,000000000e+00    0,000000000e+00    0,000000000e+00
 2737197172,000    6,021260106e-06    0,000000000e+00    0,000000000e+00    0,000000000e+00
 2740970945,000    6,021260106e-06    0,000000000e+00    0,000000000e+00    0,000000000e+00
 2744744719,000    4,024275313e-06    0,000000000e+00    0,000000000e+00    0,000000000e+00
 2748518493,000    5,366457572e-06    0,000000000e+00    0,000000000e+00    0,000000000e+00
 2752292266,000    6,021260106e-06    0,000000000e+00    0,000000000e+00    0,000000000e+00
 2756066040,000    6,378043963e-06    0,000000000e+00    0,000000000e+00    0,000000000e+00
 2759839813,000    4,515308319e-06    0,000000000e+00    0,000000000e+00    0,000000000e+00
 2763613587,000    5,066261565e-06    0,000000000e+00    0,000000000e+00    0,000000000e+00
 2767387361,000    5,066261565e-06    0,000000000e+00    0,000000000e+00    0,000000000e+00
 2771161134,000    6,378043963e-06    0,000000000e+00    0,000000000e+00    0,000000000e+00
 2774934908,000    5,366457572e-06    0,000000000e+00    0,000000000e+00    0,000000000e+00
 2778708681,000    5,684435109e-06    0,000000000e+00    0,000000000e+00    0,000000000e+00
 2782482455,000    5,366457572e-06    0,000000000e+00    0,000000000e+00    0,000000000e+00
 2786256229,000    4,782858014e-06    0,000000000e+00    0,000000000e+00    0,000000000e+00
 2790030002,000    6,021260106e-06    0,000000000e+00    0,000000000e+00    0,000000000e+00
 2793803776,000    7,580315923e-06    0,000000000e+00    0,000000000e+00    0,000000000e+00
 2797577549,000    4,262725270e-06    0,000000000e+00    0,000000000e+00    0,000000000e+00
 2801351323,000    5,158222848e-06    0,000000000e+00    0,000000000e+00    0,000000000e+00
 2805125097,000    5,871514986e-06    0,000000000e+00    0,000000000e+00    0,000000000e+00
 2808898870,000    5,483556379e-06    0,000000000e+00    0,000000000e+00    0,000000000e+00
 2812672644,000    4,940261078e-06    0,000000000e+00    0,000000000e+00    0,000000000e+00
 2816446417,000    6,219418992e-06    0,000000000e+00    0,000000000e+00    0,000000000e+00
 2820220191,000    4,958068075e-06    0,000000000e+00    0,000000000e+00    0,000000000e+00
 2823993965,000    5,563046670e-06    0,000000000e+00    0,000000000e+00    0,000000000e+00
 2827767738,000    6,241836672e-06    0,000000000e+00    0,000000000e+00    0,000000000e+00
 2831541512,000    5,913912446e-06    0,000000000e+00    0,000000000e+00    0,000000000e+00
 2835315285,000    6,264335298e-06    0,000000000e+00    0,000000000e+00    0,000000000e+00
 2839089059,000    6,659439805e-06    0,000000000e+00    0,000000000e+00    0,000000000e+00
 2842862833,000    5,289776254e-06    0,000000000e+00    0,000000000e+00    0,000000000e+00
 2846636606,000    6,309576293e-06    0,000000000e+00    0,000000000e+00    0,000000000e+00
 2850410380,000    6,309576293e-06    0,000000000e+00    0,000000000e+00    0,000000000e+00
 2854184153,000    5,978093213e-06    0,000000000e+00    0,000000000e+00    0,000000000e+00
 2857957927,000    5,643682925e-06    0,000000000e+00    0,000000000e+00    0,000000000e+00
 2861731701,000    6,731703706e-06    0,000000000e+00    0,000000000e+00    0,000000000e+00
 2865505474,000    5,048065759e-06    0,000000000e+00    0,000000000e+00    0,000000000e+00
 2869279248,000    4,515308319e-06    0,000000000e+00    0,000000000e+00    0,000000000e+00
 2873053021,000    5,066261565e-06    0,000000000e+00    0,000000000e+00    0,000000000e+00
 2876826795,000    6,021260106e-06    0,000000000e+00    0,000000000e+00    0,000000000e+00
 2880600569,000    5,704924661e-06    0,000000000e+00    0,000000000e+00    0,000000000e+00
 2884374342,000    5,704924661e-06    0,000000000e+00    0,000000000e+00    0,000000000e+00
 2888148116,000    5,725487881e-06    0,000000000e+00    0,000000000e+00    0,000000000e+00
 2891921889,000    3,612540240e-05    0,000000000e+00    0,000000000e+00    0,000000000e+00
 2895695663,000    6,804752047e-06    0,000000000e+00    0,000000000e+00    0,000000000e+00
 2899469437,000    4,834758784e-06    0,000000000e+00    0,000000000e+00    0,000000000e+00
 2903243210,000    5,444244380e-06    0,000000000e+00    0,000000000e+00    0,000000000e+00
 2907016984,000    5,766837148e-06    0,000000000e+00    0,000000000e+00    0,000000000e+00
 2910790757,000    4,324517704e-06    0,000000000e+00    0,000000000e+00    0,000000000e+00
 2914564531,000    5,463868092e-06    0,000000000e+00    0,000000000e+00    0,000000000e+00
 2918338305,000    5,787617283e-06    0,000000000e+00    0,000000000e+00    0,000000000e+00
 2922112078,000    5,176815648e-06    0,000000000e+00    0,000000000e+00    0,000000000e+00
 2925885852,000    5,808478818e-06    0,000000000e+00    0,000000000e+00    0,000000000e+00
 2929659625,000    7,338797332e-06    0,000000000e+00    0,000000000e+00    0,000000000e+00
 2933433399,000    5,829415386e-06    0,000000000e+00    0,000000000e+00    0,000000000e+00
 2937207173,000    5,503321972e-06    0,000000000e+00    0,000000000e+00    0,000000000e+00
 2940980946,000    6,953242973e-06    0,000000000e+00    0,000000000e+00    0,000000000e+00
 2944754720,000    5,523158507e-06    0,000000000e+00    0,000000000e+00    0,000000000e+00
 2948528493,000    5,543066436e-06    0,000000000e+00    0,000000000e+00    0,000000000e+00
 2952302267,000    4,663906111e-06    0,000000000e+00    0,000000000e+00    0,000000000e+00
 2956076041,000    5,251853509e-06    0,000000000e+00    0,000000000e+00    0,000000000e+00
 2959849814,000    5,892672561e-06    0,000000000e+00    0,000000000e+00    0,000000000e+00
 2963623588,000    7,445173196e-06    0,000000000e+00    0,000000000e+00    0,000000000e+00
 2967397361,000    5,270783731e-06    0,000000000e+00    0,000000000e+00    0,000000000e+00
 2971171135,000    4,697588793e-06    0,000000000e+00    0,000000000e+00    0,000000000e+00
 2974944909,000    6,659439805e-06    0,000000000e+00    0,000000000e+00    0,000000000e+00
 2978718682,000    6,659439805e-06    0,000000000e+00    0,000000000e+00    0,000000000e+00
 2982492456,000    5,011870144e-06    0,000000000e+00    0,000000000e+00    0,000000000e+00
 2986266229,000    5,308843356e-06    0,000000000e+00    0,000000000e+00    0,000000000e+00
 2990040003,000    6,309576293e-06    0,000000000e+00    0,000000000e+00    0,000000000e+00
 2993813777,000    6,332311841e-06    0,000000000e+00    0,000000000e+00    0,000000000e+00
