! tinySA-App
! Date: 2025-11-21 13:18:46
! Start: 700MHz Stop: 5,96GHz Points: 1000
! S-Parameter data: F S11 S21
# Hz S RI R 50
!     Frequency           S11 Real           S11 Imag           S21 Real           S21 Imag
  700000000,000    8,029479432e-06    0,000000000e+00    0,000000000e+00    0,000000000e+00
  705265265,000    4,450794077e-04    0,000000000e+00    0,000000000e+00    0,000000000e+00
  710530530,000    1,988097210e-04    0,000000000e+00    0,000000000e+00    0,000000000e+00
  715795796,000    9,406699974e-06    0,000000000e+00    0,000000000e+00    0,000000000e+00
  721061061,000    8,880505447e-06    0,000000000e+00    0,000000000e+00    0,000000000e+00
  726326326,000    1,117989177e-05    0,000000000e+00    0,000000000e+00    0,000000000e+00
  731591591,000    8,880505447e-06    0,000000000e+00    0,000000000e+00    0,000000000e+00
  736856857,000    8,383735803e-06    0,000000000e+00    0,000000000e+00    0,000000000e+00
  742122122,000    2,808262434e-05    0,000000000e+00    0,000000000e+00    0,000000000e+00
  747387387,000    9,964084711e-06    0,000000000e+00    0,000000000e+00    0,000000000e+00
  752652652,000    1,184234407e-05    0,000000000e+00    0,000000000e+00    0,000000000e+00
  757917918,000    7,914754860e-06    0,000000000e+00    0,000000000e+00    0,000000000e+00
  763183183,000    9,964084711e-06    0,000000000e+00    0,000000000e+00    0,000000000e+00
  768448448,000    8,880505447e-06    0,000000000e+00    0,000000000e+00    0,000000000e+00
  773713713,000    7,498942068e-06    0,000000000e+00    0,000000000e+00    0,000000000e+00
  778978978,000    1,258925204e-05    0,000000000e+00    0,000000000e+00    0,000000000e+00
  784244244,000    1,417629301e-05    0,000000000e+00    0,000000000e+00    0,000000000e+00
  789509509,000    9,508786206e-06    0,000000000e+00    0,000000000e+00    0,000000000e+00
  794774774,000    8,976871868e-06    0,000000000e+00    0,000000000e+00    0,000000000e+00
  800040039,000    8,505257938e-06    0,000000000e+00    0,000000000e+00    0,000000000e+00
  805305305,000    1,014494956e-05    0,000000000e+00    0,000000000e+00    0,000000000e+00
  810570570,000    9,577448509e-06    0,000000000e+00    0,000000000e+00    0,000000000e+00
  815835835,000    1,138282551e-05    0,000000000e+00    0,000000000e+00    0,000000000e+00
  821101100,000    6,804752047e-06    0,000000000e+00    0,000000000e+00    0,000000000e+00
  826366366,000    1,082368635e-05    0,000000000e+00    0,000000000e+00    0,000000000e+00
  831631631,000    1,528884968e-05    0,000000000e+00    0,000000000e+00    0,000000000e+00
  836896896,000    1,367532604e-05    0,000000000e+00    0,000000000e+00    0,000000000e+00
  842162161,000    2,575949293e-05    0,000000000e+00    0,000000000e+00    0,000000000e+00
  847427426,000    1,453784080e-05    0,000000000e+00    0,000000000e+00    0,000000000e+00
  852692692,000    1,032909859e-05    0,000000000e+00    0,000000000e+00    0,000000000e+00
  857957957,000    1,032909859e-05    0,000000000e+00    0,000000000e+00    0,000000000e+00
  863223222,000    1,642951793e-05    0,000000000e+00    0,000000000e+00    0,000000000e+00
  868488487,000    1,952653110e-05    0,000000000e+00    0,000000000e+00    0,000000000e+00
  873753753,000    1,746576163e-05    0,000000000e+00    0,000000000e+00    0,000000000e+00
  879019018,000    8,785164027e-06    0,000000000e+00    0,000000000e+00    0,000000000e+00
  884284283,000    6,587943972e-06    0,000000000e+00    0,000000000e+00    0,000000000e+00
  889549548,000    2,788126585e-05    0,000000000e+00    0,000000000e+00    0,000000000e+00
  894814813,000    1,245410749e-05    0,000000000e+00    0,000000000e+00    0,000000000e+00
  900080079,000    1,051658910e-05    0,000000000e+00    0,000000000e+00    0,000000000e+00
  905345344,000    7,886329513e-06    0,000000000e+00    0,000000000e+00    0,000000000e+00
  910610609,000    2,974661475e-04    0,000000000e+00    0,000000000e+00    0,000000000e+00
  915875874,000    1,055449593e-05    0,000000000e+00    0,000000000e+00    0,000000000e+00
  921141140,000    9,440606846e-06    0,000000000e+00    0,000000000e+00    0,000000000e+00
  926406405,000    4,748567007e-04    0,000000000e+00    0,000000000e+00    0,000000000e+00
  931671670,000    1,501627867e-05    0,000000000e+00    0,000000000e+00    0,000000000e+00
  936936935,000    1,007221406e-03    0,000000000e+00    0,000000000e+00    0,000000000e+00
  942202201,000    8,976871031e-04    0,000000000e+00    0,000000000e+00    0,000000000e+00
  947467466,000    5,366454716e-04    0,000000000e+00    0,000000000e+00    0,000000000e+00
  952732731,000    7,156282081e-04    0,000000000e+00    0,000000000e+00    0,000000000e+00
  957997996,000    1,433012541e-03    0,000000000e+00    0,000000000e+00    0,000000000e+00
  963263261,000    7,207960607e-06    0,000000000e+00    0,000000000e+00    0,000000000e+00
  968528527,000    1,078481273e-05    0,000000000e+00    0,000000000e+00    0,000000000e+00
  973793792,000    1,018151761e-05    0,000000000e+00    0,000000000e+00    0,000000000e+00
  979059057,000    1,286396946e-05    0,000000000e+00    0,000000000e+00    0,000000000e+00
  984324322,000    9,139816939e-06    0,000000000e+00    0,000000000e+00    0,000000000e+00
  989589588,000    9,681387382e-06    0,000000000e+00    0,000000000e+00    0,000000000e+00
  994854853,000    9,751295693e-06    0,000000000e+00    0,000000000e+00    0,000000000e+00
 1000120118,000    7,338797332e-06    0,000000000e+00    0,000000000e+00    0,000000000e+00
 1005385383,000    8,293728570e-06    0,000000000e+00    0,000000000e+00    0,000000000e+00
 1010650649,000    8,785164027e-06    0,000000000e+00    0,000000000e+00    0,000000000e+00
 1015915914,000    7,003458904e-06    0,000000000e+00    0,000000000e+00    0,000000000e+00
 1021181179,000    7,914754860e-06    0,000000000e+00    0,000000000e+00    0,000000000e+00
 1026446444,000    9,999999747e-06    0,000000000e+00    0,000000000e+00    0,000000000e+00
 1031711709,000    5,999634595e-06    0,000000000e+00    0,000000000e+00    0,000000000e+00
 1036976975,000    8,535915185e-06    0,000000000e+00    0,000000000e+00    0,000000000e+00
 1042242240,000    8,535915185e-06    0,000000000e+00    0,000000000e+00    0,000000000e+00
 1047507505,000    6,829279755e-06    0,000000000e+00    0,000000000e+00    0,000000000e+00
 1052772770,000    1,154781967e-05    0,000000000e+00    0,000000000e+00    0,000000000e+00
 1058038036,000    6,493816272e-06    0,000000000e+00    0,000000000e+00    0,000000000e+00
 1063303301,000    8,722183338e-06    0,000000000e+00    0,000000000e+00    0,000000000e+00
 1068568566,000    5,850427442e-06    0,000000000e+00    0,000000000e+00    0,000000000e+00
 1073833831,000    6,241836672e-06    0,000000000e+00    0,000000000e+00    0,000000000e+00
 1079099097,000    1,051658910e-05    0,000000000e+00    0,000000000e+00    0,000000000e+00
 1084364362,000    1,055449593e-05    0,000000000e+00    0,000000000e+00    0,000000000e+00
 1089629627,000    6,332311841e-06    0,000000000e+00    0,000000000e+00    0,000000000e+00
 1094894892,000    6,355136975e-06    0,000000000e+00    0,000000000e+00    0,000000000e+00
 1100160157,000    8,505257938e-06    0,000000000e+00    0,000000000e+00    0,000000000e+00
 1105425423,000    6,804752047e-06    0,000000000e+00    0,000000000e+00    0,000000000e+00
 1110690688,000    7,662581083e-06    0,000000000e+00    0,000000000e+00    0,000000000e+00
 1115955953,000    6,108538400e-06    0,000000000e+00    0,000000000e+00    0,000000000e+00
 1121221218,000    8,690856703e-06    0,000000000e+00    0,000000000e+00    0,000000000e+00
 1126486484,000    6,540714367e-06    0,000000000e+00    0,000000000e+00    0,000000000e+00
 1131751749,000    7,773650395e-06    0,000000000e+00    0,000000000e+00    0,000000000e+00
 1137017014,000    6,587943972e-06    0,000000000e+00    0,000000000e+00    0,000000000e+00
 1142282279,000    9,339262760e-06    0,000000000e+00    0,000000000e+00    0,000000000e+00
 1147547544,000    6,635521913e-06    0,000000000e+00    0,000000000e+00    0,000000000e+00
 1152812810,000    5,956622772e-06    0,000000000e+00    0,000000000e+00    0,000000000e+00
 1158078075,000    5,999634595e-06    0,000000000e+00    0,000000000e+00    0,000000000e+00
 1163343340,000    6,755968116e-06    0,000000000e+00    0,000000000e+00    0,000000000e+00
 1168608605,000    8,029479432e-06    0,000000000e+00    0,000000000e+00    0,000000000e+00
 1173873871,000    5,746125225e-06    0,000000000e+00    0,000000000e+00    0,000000000e+00
 1179139136,000    4,852185612e-06    0,000000000e+00    0,000000000e+00    0,000000000e+00
 1184404401,000    6,130556812e-06    0,000000000e+00    0,000000000e+00    0,000000000e+00
 1189669666,000    8,204696314e-06    0,000000000e+00    0,000000000e+00    0,000000000e+00
 1194934932,000    7,365249985e-06    0,000000000e+00    0,000000000e+00    0,000000000e+00
 1200200197,000    2,038800812e-05    0,000000000e+00    0,000000000e+00    0,000000000e+00
 1205465462,000    6,853895684e-06    0,000000000e+00    0,000000000e+00    0,000000000e+00
 1210730727,000    5,808478818e-06    0,000000000e+00    0,000000000e+00    0,000000000e+00
 1215995992,000    6,174831015e-06    0,000000000e+00    0,000000000e+00    0,000000000e+00
 1221261258,000    5,523158507e-06    0,000000000e+00    0,000000000e+00    0,000000000e+00
 1226526523,000    1,105986485e-05    0,000000000e+00    0,000000000e+00    0,000000000e+00
 1231791788,000    5,270783731e-06    0,000000000e+00    0,000000000e+00    0,000000000e+00
 1237057053,000    7,028702839e-06    0,000000000e+00    0,000000000e+00    0,000000000e+00
 1242322319,000    5,913912446e-06    0,000000000e+00    0,000000000e+00    0,000000000e+00
 1247587584,000    4,975939191e-06    0,000000000e+00    0,000000000e+00    0,000000000e+00
 1252852849,000    5,913912446e-06    0,000000000e+00    0,000000000e+00    0,000000000e+00
 1258118114,000    8,848610378e-06    0,000000000e+00    0,000000000e+00    0,000000000e+00
 1263383380,000    8,353625162e-06    0,000000000e+00    0,000000000e+00    0,000000000e+00
 1268648645,000    5,583092388e-06    0,000000000e+00    0,000000000e+00    0,000000000e+00
 1273913910,000    6,264335298e-06    0,000000000e+00    0,000000000e+00    0,000000000e+00
 1279179175,000    6,264335298e-06    0,000000000e+00    0,000000000e+00    0,000000000e+00
 1284444440,000    4,975939191e-06    0,000000000e+00    0,000000000e+00    0,000000000e+00
 1289709706,000    4,697588793e-06    0,000000000e+00    0,000000000e+00    0,000000000e+00
 1294974971,000    5,583092388e-06    0,000000000e+00    0,000000000e+00    0,000000000e+00
 1300240236,000    5,583092388e-06    0,000000000e+00    0,000000000e+00    0,000000000e+00
 1305505501,000    5,583092388e-06    0,000000000e+00    0,000000000e+00    0,000000000e+00
 1310770767,000    5,251853509e-06    0,000000000e+00    0,000000000e+00    0,000000000e+00
 1316036032,000    6,241836672e-06    0,000000000e+00    0,000000000e+00    0,000000000e+00
 1321301297,000    5,892672561e-06    0,000000000e+00    0,000000000e+00    0,000000000e+00
 1326566562,000    5,892672561e-06    0,000000000e+00    0,000000000e+00    0,000000000e+00
 1331831828,000    9,339262760e-06    0,000000000e+00    0,000000000e+00    0,000000000e+00
 1337097093,000    1,047881869e-05    0,000000000e+00    0,000000000e+00    0,000000000e+00
 1342362358,000    9,892651178e-06    0,000000000e+00    0,000000000e+00    0,000000000e+00
 1347627623,000    6,241836672e-06    0,000000000e+00    0,000000000e+00    0,000000000e+00
 1352892888,000    5,892672561e-06    0,000000000e+00    0,000000000e+00    0,000000000e+00
 1358158154,000    5,251853509e-06    0,000000000e+00    0,000000000e+00    0,000000000e+00
 1363423419,000    4,680717211e-06    0,000000000e+00    0,000000000e+00    0,000000000e+00
 1368688684,000    4,680717211e-06    0,000000000e+00    0,000000000e+00    0,000000000e+00
 1373953949,000    5,892672561e-06    0,000000000e+00    0,000000000e+00    0,000000000e+00
 1379219215,000    6,611690424e-06    0,000000000e+00    0,000000000e+00    0,000000000e+00
 1384484480,000    4,171696219e-06    0,000000000e+00    0,000000000e+00    0,000000000e+00
 1389749745,000    5,543066436e-06    0,000000000e+00    0,000000000e+00    0,000000000e+00
 1395015010,000    5,232991043e-06    0,000000000e+00    0,000000000e+00    0,000000000e+00
 1400280275,000    3,924189969e-06    0,000000000e+00    0,000000000e+00    0,000000000e+00
 1405545541,000    1,752871503e-05    0,000000000e+00    0,000000000e+00    0,000000000e+00
 1410810806,000    5,543066436e-06    0,000000000e+00    0,000000000e+00    0,000000000e+00
 1416076071,000    4,940261078e-06    0,000000000e+00    0,000000000e+00    0,000000000e+00
 1421341336,000    5,232991043e-06    0,000000000e+00    0,000000000e+00    0,000000000e+00
 1426606602,000    5,871514986e-06    0,000000000e+00    0,000000000e+00    0,000000000e+00
 1431871867,000    5,232991043e-06    0,000000000e+00    0,000000000e+00    0,000000000e+00
 1437137132,000    4,403015282e-06    0,000000000e+00    0,000000000e+00    0,000000000e+00
 1442402397,000    6,978305919e-06    0,000000000e+00    0,000000000e+00    0,000000000e+00
 1447667663,000    4,940261078e-06    0,000000000e+00    0,000000000e+00    0,000000000e+00
 1452932928,000    5,871514986e-06    0,000000000e+00    0,000000000e+00    0,000000000e+00
 1458198193,000    4,940261078e-06    0,000000000e+00    0,000000000e+00    0,000000000e+00
 1463463458,000    4,922518201e-06    0,000000000e+00    0,000000000e+00    0,000000000e+00
 1468728723,000    4,922518201e-06    0,000000000e+00    0,000000000e+00    0,000000000e+00
 1473993989,000    5,214196790e-06    0,000000000e+00    0,000000000e+00    0,000000000e+00
 1479259254,000    4,922518201e-06    0,000000000e+00    0,000000000e+00    0,000000000e+00
 1484524519,000    5,850427442e-06    0,000000000e+00    0,000000000e+00    0,000000000e+00
 1489789784,000    4,387201898e-06    0,000000000e+00    0,000000000e+00    0,000000000e+00
 1495055050,000    4,387201898e-06    0,000000000e+00    0,000000000e+00    0,000000000e+00
 1500320315,000    5,523158507e-06    0,000000000e+00    0,000000000e+00    0,000000000e+00
 1505585580,000    4,922518201e-06    0,000000000e+00    0,000000000e+00    0,000000000e+00
 1510850845,000    4,922518201e-06    0,000000000e+00    0,000000000e+00    0,000000000e+00
 1516116111,000    4,647160949e-06    0,000000000e+00    0,000000000e+00    0,000000000e+00
 1521381376,000    4,141784757e-06    0,000000000e+00    0,000000000e+00    0,000000000e+00
 1526646641,000    4,922518201e-06    0,000000000e+00    0,000000000e+00    0,000000000e+00
 1531911906,000    4,387201898e-06    0,000000000e+00    0,000000000e+00    0,000000000e+00
 1537177171,000    4,387201898e-06    0,000000000e+00    0,000000000e+00    0,000000000e+00
 1542442437,000    4,904843991e-06    0,000000000e+00    0,000000000e+00    0,000000000e+00
 1547707702,000    5,503321972e-06    0,000000000e+00    0,000000000e+00    0,000000000e+00
 1552972967,000    4,904843991e-06    0,000000000e+00    0,000000000e+00    0,000000000e+00
 1558238232,000    5,503321972e-06    0,000000000e+00    0,000000000e+00    0,000000000e+00
 1563503498,000    4,630470357e-06    0,000000000e+00    0,000000000e+00    0,000000000e+00
 1568768763,000    4,126909062e-06    0,000000000e+00    0,000000000e+00    0,000000000e+00
 1574034028,000    4,630470357e-06    0,000000000e+00    0,000000000e+00    0,000000000e+00
 1579299293,000    4,630470357e-06    0,000000000e+00    0,000000000e+00    0,000000000e+00
 1584564559,000    4,904843991e-06    0,000000000e+00    0,000000000e+00    0,000000000e+00
 1589829824,000    4,630470357e-06    0,000000000e+00    0,000000000e+00    0,000000000e+00
 1595095089,000    4,904843991e-06    0,000000000e+00    0,000000000e+00    0,000000000e+00
 1600360354,000    5,503321972e-06    0,000000000e+00    0,000000000e+00    0,000000000e+00
 1605625619,000    5,195469384e-06    0,000000000e+00    0,000000000e+00    0,000000000e+00
 1610890885,000    4,904843991e-06    0,000000000e+00    0,000000000e+00    0,000000000e+00
 1616156150,000    1,377407352e-05    0,000000000e+00    0,000000000e+00    0,000000000e+00
 1621421415,000    1,300356143e-05    0,000000000e+00    0,000000000e+00    0,000000000e+00
 1626686680,000    5,483556379e-06    0,000000000e+00    0,000000000e+00    0,000000000e+00
 1631951946,000    6,517223028e-06    0,000000000e+00    0,000000000e+00    0,000000000e+00
 1637217211,000    7,312439720e-06    0,000000000e+00    0,000000000e+00    0,000000000e+00
 1642482476,000    6,152653896e-06    0,000000000e+00    0,000000000e+00    0,000000000e+00
 1647747741,000    1,300356143e-05    0,000000000e+00    0,000000000e+00    0,000000000e+00
 1653013006,000    8,204696314e-06    0,000000000e+00    0,000000000e+00    0,000000000e+00
 1658278272,000    5,176815648e-06    0,000000000e+00    0,000000000e+00    0,000000000e+00
 1663543537,000    5,176815648e-06    0,000000000e+00    0,000000000e+00    0,000000000e+00
 1668808802,000    4,613839337e-06    0,000000000e+00    0,000000000e+00    0,000000000e+00
 1674074067,000    5,176815648e-06    0,000000000e+00    0,000000000e+00    0,000000000e+00
 1679339333,000    1,158944360e-05    0,000000000e+00    0,000000000e+00    0,000000000e+00
 1684604598,000    4,887227988e-06    0,000000000e+00    0,000000000e+00    0,000000000e+00
 1689869863,000    4,887227988e-06    0,000000000e+00    0,000000000e+00    0,000000000e+00
 1695135128,000    6,493816272e-06    0,000000000e+00    0,000000000e+00    0,000000000e+00
 1700400394,000    9,716283785e-06    0,000000000e+00    0,000000000e+00    0,000000000e+00
 1705665659,000    5,463868092e-06    0,000000000e+00    0,000000000e+00    0,000000000e+00
 1710930924,000    1,090184287e-05    0,000000000e+00    0,000000000e+00    0,000000000e+00
 1716196189,000    4,097322744e-06    0,000000000e+00    0,000000000e+00    0,000000000e+00
 1721461454,000    4,340100531e-06    0,000000000e+00    0,000000000e+00    0,000000000e+00
 1726726720,000    1,295687252e-05    0,000000000e+00    0,000000000e+00    0,000000000e+00
 1731991985,000    4,097322744e-06    0,000000000e+00    0,000000000e+00    0,000000000e+00
 1737257250,000    1,453784080e-05    0,000000000e+00    0,000000000e+00    0,000000000e+00
 1742522515,000    2,304094050e-05    0,000000000e+00    0,000000000e+00    0,000000000e+00
 1747787781,000    9,172761202e-05    0,000000000e+00    0,000000000e+00    0,000000000e+00
 1753053046,000    6,130556721e-05    0,000000000e+00    0,000000000e+00    0,000000000e+00
 1758318311,000    5,463868092e-06    0,000000000e+00    0,000000000e+00    0,000000000e+00
 1763583576,000    5,158222848e-06    0,000000000e+00    0,000000000e+00    0,000000000e+00
 1768848842,000    4,869675195e-06    0,000000000e+00    0,000000000e+00    0,000000000e+00
 1774114107,000    6,108538400e-06    0,000000000e+00    0,000000000e+00    0,000000000e+00
 1779379372,000    5,139696896e-06    0,000000000e+00    0,000000000e+00    0,000000000e+00
 1784644637,000    5,444244380e-06    0,000000000e+00    0,000000000e+00    0,000000000e+00
 1789909902,000    5,444244380e-06    0,000000000e+00    0,000000000e+00    0,000000000e+00
 1795175168,000    6,470493645e-06    0,000000000e+00    0,000000000e+00    0,000000000e+00
 1800440433,000    5,139696896e-06    0,000000000e+00    0,000000000e+00    0,000000000e+00
 1805705698,000    4,852185666e-04    0,000000000e+00    0,000000000e+00    0,000000000e+00
 1810970963,000    2,167392231e-04    0,000000000e+00    0,000000000e+00    0,000000000e+00
 1816236229,000    2,728584514e-04    0,000000000e+00    0,000000000e+00    0,000000000e+00
 1821501494,000    1,823633065e-04    0,000000000e+00    0,000000000e+00    0,000000000e+00
